T3C38 000:066.423   SEGGER J-Link V7.58 Log File
T3C38 000:066.993   DLL Compiled: Nov  4 2021 16:23:13
T3C38 000:067.030   Logging started @ 2023-04-20 15:13
T3C38 000:067.061 - 67.078ms
T3C38 000:067.118 JLINK_SetWarnOutHandler(...)
T3C38 000:067.159 - 0.057ms
T3C38 000:067.201 JLINK_OpenEx(...)
T3C38 000:070.956   Firmware: J-Link ARM-OB STM32 compiled Aug 22 2012 19:52:04
T3C38 000:071.772   Firmware: J-Link ARM-OB STM32 compiled Aug 22 2012 19:52:04
T3C38 000:075.186   Hardware: V7.00
T3C38 000:075.271   S/N: 20090928
T3C38 000:075.319   OEM: SEGGER
T3C38 000:075.367   Feature(s): RDI,FlashDL,FlashBP,JFlash,GDBFull
T3C38 000:077.674   TELNET listener socket opened on port 19021
T3C38 000:078.298   WEBSRV WEBSRV_Init(): Starting webserver thread(s)
T3C38 000:079.071   WEBSRV Webserver running on local port 19080
T3C38 000:136.612 - 69.481ms returns "O.K."
T3C38 000:136.768 JLINK_GetEmuCaps()
T3C38 000:136.806 - 0.054ms returns 0x88EA5833
T3C38 000:136.868 JLINK_TIF_GetAvailable(...)
T3C38 000:137.334 - 0.519ms
T3C38 000:137.438 JLINK_SetErrorOutHandler(...)
T3C38 000:137.474 - 0.053ms
T3C38 000:137.567 JLINK_ExecCommand("ProjectFile = "C:\Users\1\Desktop\UÅÌ ÍêÕû²½±ø\Project\JLinkSettings.ini"", ...). 
T3C38 000:178.570   Ref file found at: C:\Keil_v5\ARM\Segger\JLinkDevices.ref
T3C38 000:178.837   XML referenced by ref file: C:\Program Files\SEGGER\JLink\JLinkDevices.xml
T3C38 000:180.401   C:\Program Files\SEGGER\JLink\JLinkDevices.xml evaluated successfully.
T3C38 000:236.859   Device "STM32F427II" selected.
T3C38 000:237.383 - 99.827ms returns 0x00
T3C38 000:237.434 JLINK_ExecCommand("Device = STM32F427IIHx", ...). 
T3C38 000:238.620   Device "STM32F427II" selected.
T3C38 000:239.051 - 1.611ms returns 0x00
T3C38 000:239.077 JLINK_ExecCommand("DisableConnectionTimeout", ...). 
T3C38 000:239.095 - 0.008ms returns 0x01
T3C38 000:239.112 JLINK_GetHardwareVersion()
T3C38 000:239.123 - 0.016ms returns 70000
T3C38 000:239.137 JLINK_GetDLLVersion()
T3C38 000:239.154 - 0.021ms returns 75800
T3C38 000:239.234 JLINK_GetOEMString(...)
T3C38 000:239.271 JLINK_GetFirmwareString(...)
T3C38 000:239.282 - 0.016ms
T3C38 000:239.323 JLINK_GetDLLVersion()
T3C38 000:239.335 - 0.017ms returns 75800
T3C38 000:239.349 JLINK_GetCompileDateTime()
T3C38 000:239.359 - 0.023ms
T3C38 000:239.390 JLINK_GetFirmwareString(...)
T3C38 000:239.401 - 0.016ms
T3C38 000:239.421 JLINK_GetHardwareVersion()
T3C38 000:239.432 - 0.016ms returns 70000
T3C38 000:239.453 JLINK_GetSN()
T3C38 000:239.465 - 0.016ms returns 20090928
T3C38 000:239.484 JLINK_GetOEMString(...)
T3C38 000:239.513 JLINK_TIF_Select(JLINKARM_TIF_SWD)
T3C38 000:240.054 - 0.556ms returns 0x00
T3C38 000:240.082 JLINK_HasError()
T3C38 000:240.104 JLINK_SetSpeed(5000)
T3C38 000:240.257 - 0.167ms
T3C38 000:240.291 JLINK_GetId()
T3C38 000:240.641   InitTarget() start
T3C38 000:240.668    J-Link Script File: Executing InitTarget()
T3C38 000:254.857   InitTarget() end
T3C38 000:255.544   Found SW-DP with ID 0x2BA01477
T3C38 000:258.977   Old FW that does not support reading DPIDR via DAP jobs
T3C38 000:262.314   DPv0 detected
T3C38 000:262.351   Scanning AP map to find all available APs
T3C38 000:264.490   AP[1]: Stopped AP scan as end of AP map has been reached
T3C38 000:264.524   AP[0]: AHB-AP (IDR: 0x24770011)
T3C38 000:264.547   Iterating through AP map to find AHB-AP to use
T3C38 000:268.297   AP[0]: Core found
T3C38 000:268.328   AP[0]: AHB-AP ROM base: 0xE00FF000
T3C38 000:270.162   CPUID register: 0x410FC241. Implementer code: 0x41 (ARM)
T3C38 000:270.192   Found Cortex-M4 r0p1, Little endian.
T3C38 000:371.807   -- Max. mem block: 0x00002C18
T3C38 000:372.329   CPU_ReadMem(4 bytes @ 0xE000EDF0)
T3C38 000:373.198   CPU_ReadMem(4 bytes @ 0xE0002000)
T3C38 000:374.086   FPUnit: 6 code (BP) slots and 2 literal slots
T3C38 000:374.188   CPU_ReadMem(4 bytes @ 0xE000EDFC)
T3C38 000:374.947   CPU_WriteMem(4 bytes @ 0xE000EDFC)
T3C38 000:375.827   CPU_ReadMem(4 bytes @ 0xE0001000)
T3C38 000:376.678   CPU_WriteMem(4 bytes @ 0xE0001000)
T3C38 000:377.743   CPU_ReadMem(4 bytes @ 0xE000ED88)
T3C38 000:378.784   CPU_WriteMem(4 bytes @ 0xE000ED88)
T3C38 000:379.661   CPU_ReadMem(4 bytes @ 0xE000ED88)
T3C38 000:380.541   CPU_WriteMem(4 bytes @ 0xE000ED88)
T3C38 000:381.528   CoreSight components:
T3C38 000:381.677   ROMTbl[0] @ E00FF000
T3C38 000:381.741   CPU_ReadMem(64 bytes @ 0xE00FF000)
T3C38 000:383.192   CPU_ReadMem(32 bytes @ 0xE000EFE0)
T3C38 000:384.677   [0][0]: E000E000 CID B105E00D PID 000BB00C SCS-M7
T3C38 000:384.797   CPU_ReadMem(32 bytes @ 0xE0001FE0)
T3C38 000:386.052   [0][1]: E0001000 CID B105E00D PID 003BB002 DWT
T3C38 000:386.172   CPU_ReadMem(32 bytes @ 0xE0002FE0)
T3C38 000:387.634   [0][2]: E0002000 CID B105E00D PID 002BB003 FPB
T3C38 000:387.757   CPU_ReadMem(32 bytes @ 0xE0000FE0)
T3C38 000:389.034   [0][3]: E0000000 CID B105E00D PID 003BB001 ITM
T3C38 000:389.207   CPU_ReadMem(32 bytes @ 0xE0040FE0)
T3C38 000:390.505   [0][4]: E0040000 CID B105900D PID 000BB9A1 TPIU
T3C38 000:390.672   CPU_ReadMem(32 bytes @ 0xE0041FE0)
T3C38 000:391.996   [0][5]: E0041000 CID B105900D PID 000BB925 ETM
T3C38 000:393.175 - 152.938ms returns 0x2BA01477
T3C38 000:393.286 JLINK_GetDLLVersion()
T3C38 000:393.322 - 0.094ms returns 75800
T3C38 000:393.419 JLINK_CORE_GetFound()
T3C38 000:393.453 - 0.050ms returns 0xE0000FF
T3C38 000:393.521 JLINK_GetDebugInfo(0x100 = JLINKARM_ROM_TABLE_ADDR_INDEX)
T3C38 000:393.601   Value=0xE00FF000
T3C38 000:393.649 - 0.144ms returns 0
T3C38 000:393.754 JLINK_GetDebugInfo(0x100 = JLINKARM_ROM_TABLE_ADDR_INDEX)
T3C38 000:393.793   Value=0xE00FF000
T3C38 000:393.838 - 0.100ms returns 0
T3C38 000:393.884 JLINK_GetDebugInfo(0x101 = JLINKARM_DEBUG_INFO_ETM_ADDR_INDEX)
T3C38 000:393.921   Value=0xE0041000
T3C38 000:393.965 - 0.096ms returns 0
T3C38 000:394.014 JLINK_ReadMemEx(0xE0041FD0, 0x20 Bytes, Flags = 0x02000004)
T3C38 000:394.141   CPU_ReadMem(32 bytes @ 0xE0041FD0)
T3C38 000:395.554   Data:  04 00 00 00 00 00 00 00 00 00 00 00 00 00 00 00 ...
T3C38 000:395.665 - 1.668ms returns 32 (0x20)
T3C38 000:395.736 JLINK_GetDebugInfo(0x102 = JLINKARM_DEBUG_INFO_MTB_ADDR_INDEX)
T3C38 000:395.775   Value=0x00000000
T3C38 000:395.820 - 0.100ms returns 0
T3C38 000:395.869 JLINK_GetDebugInfo(0x103 = JLINKARM_DEBUG_INFO_TPIU_ADDR_INDEX)
T3C38 000:395.903   Value=0xE0040000
T3C38 000:395.947 - 0.094ms returns 0
T3C38 000:395.993 JLINK_GetDebugInfo(0x104 = JLINKARM_DEBUG_INFO_ITM_ADDR_INDEX)
T3C38 000:396.026   Value=0xE0000000
T3C38 000:396.071 - 0.093ms returns 0
T3C38 000:396.118 JLINK_GetDebugInfo(0x105 = JLINKARM_DEBUG_INFO_DWT_ADDR_INDEX)
T3C38 000:396.151   Value=0xE0001000
T3C38 000:396.195 - 0.093ms returns 0
T3C38 000:396.240 JLINK_GetDebugInfo(0x106 = JLINKARM_DEBUG_INFO_FPB_ADDR_INDEX)
T3C38 000:396.273   Value=0xE0002000
T3C38 000:396.317 - 0.093ms returns 0
T3C38 000:396.364 JLINK_GetDebugInfo(0x107 = JLINKARM_DEBUG_INFO_NVIC_ADDR_INDEX)
T3C38 000:396.396   Value=0xE000E000
T3C38 000:396.441 - 0.092ms returns 0
T3C38 000:396.485 JLINK_GetDebugInfo(0x10C = JLINKARM_DEBUG_INFO_DBG_ADDR_INDEX)
T3C38 000:396.518   Value=0xE000EDF0
T3C38 000:396.581 - 0.110ms returns 0
T3C38 000:396.627 JLINK_GetDebugInfo(0x01 = Unknown)
T3C38 000:396.661   Value=0x00000001
T3C38 000:396.706 - 0.093ms returns 0
T3C38 000:396.751 JLINK_ReadMemU32(0xE000ED00, 0x1 Items)
T3C38 000:396.816   CPU_ReadMem(4 bytes @ 0xE000ED00)
T3C38 000:397.671   Data:  41 C2 0F 41
T3C38 000:397.777   Debug reg: CPUID
T3C38 000:397.824 - 1.089ms returns 1 (0x1)
T3C38 000:397.894 JLINK_GetDebugInfo(0x10F = JLINKARM_DEBUG_INFO_HAS_CORTEX_M_SECURITY_EXT_INDEX)
T3C38 000:397.933   Value=0x00000000
T3C38 000:397.978 - 0.099ms returns 0
T3C38 000:398.027 JLINK_HasError()
T3C38 000:398.282 JLINK_SetResetType(JLINKARM_CM3_RESET_TYPE_NORMAL)
T3C38 000:398.353 - 0.089ms returns JLINKARM_CM3_RESET_TYPE_NORMAL
T3C38 000:398.399 JLINK_Reset()
T3C38 000:398.496   CPU is running
T3C38 000:398.586   CPU_WriteMem(4 bytes @ 0xE000EDF0)
T3C38 000:399.445   CPU is running
T3C38 000:399.569   CPU_WriteMem(4 bytes @ 0xE000EDFC)
T3C38 000:400.684   Reset: Halt core after reset via DEMCR.VC_CORERESET.
T3C38 000:401.797   Reset: Reset device via AIRCR.SYSRESETREQ.
T3C38 000:401.892   CPU is running
T3C38 000:401.952   CPU_WriteMem(4 bytes @ 0xE000ED0C)
T3C38 000:455.529   CPU_ReadMem(4 bytes @ 0xE000EDF0)
T3C38 000:456.416   CPU_ReadMem(4 bytes @ 0xE000EDF0)
T3C38 000:457.273   CPU is running
T3C38 000:457.376   CPU_WriteMem(4 bytes @ 0xE000EDF0)
T3C38 000:458.411   CPU is running
T3C38 000:458.529   CPU_WriteMem(4 bytes @ 0xE000EDFC)
T3C38 000:465.201   CPU_ReadMem(4 bytes @ 0xE000EDF0)
T3C38 000:469.962   CPU_WriteMem(4 bytes @ 0xE0002000)
T3C38 000:471.080   CPU_ReadMem(4 bytes @ 0xE000EDFC)
T3C38 000:472.188   CPU_ReadMem(4 bytes @ 0xE0001000)
T3C38 000:473.318 - 75.027ms
T3C38 000:473.490 JLINK_HasError()
T3C38 000:473.539 JLINK_ReadReg(R15 (PC))
T3C38 000:473.590 - 0.068ms returns 0x0800027C
T3C38 000:473.642 JLINK_ReadReg(XPSR)
T3C38 000:473.679 - 0.054ms returns 0x01000000
T3C38 000:473.933 JLINK_Halt()
T3C38 000:474.006 - 0.091ms returns 0x00
T3C38 000:474.053 JLINK_ReadMemU32(0xE000EDF0, 0x1 Items)
T3C38 000:474.118   CPU_ReadMem(4 bytes @ 0xE000EDF0)
T3C38 000:474.972   Data:  03 00 03 00
T3C38 000:475.056   Debug reg: DHCSR
T3C38 000:475.104 - 1.067ms returns 1 (0x1)
T3C38 000:475.156 JLINK_WriteU32_64(0xE000EDF0, 0xA05F0003)
T3C38 000:475.192   Debug reg: DHCSR
T3C38 000:476.231   CPU_WriteMem(4 bytes @ 0xE000EDF0)
T3C38 000:477.074 - 1.966ms returns 0 (0x00000000)
T3C38 000:477.162 JLINK_WriteU32_64(0xE000EDFC, 0x01000000)
T3C38 000:477.201   Debug reg: DEMCR
T3C38 000:477.277   CPU_WriteMem(4 bytes @ 0xE000EDFC)
T3C38 000:478.120 - 1.008ms returns 0 (0x00000000)
T3C38 000:478.350 JLINK_GetHWStatus(...)
T3C38 000:478.817 - 0.520ms returns 0
T3C38 000:479.011 JLINK_GetNumBPUnits(Type = 0xFFFFFF00)
T3C38 000:479.058 - 0.064ms returns 0x06
T3C38 000:479.101 JLINK_GetNumBPUnits(Type = 0xF0)
T3C38 000:479.135 - 0.050ms returns 0x2000
T3C38 000:479.176 JLINK_GetNumWPUnits()
T3C38 000:479.209 - 0.048ms returns 4
T3C38 000:479.303 JLINK_GetSpeed()
T3C38 000:479.339 - 0.052ms returns 4000
T3C38 000:479.542 JLINK_ReadMemU32(0xE000E004, 0x1 Items)
T3C38 000:479.611   CPU_ReadMem(4 bytes @ 0xE000E004)
T3C38 000:480.449   Data:  02 00 00 00
T3C38 000:480.535 - 1.010ms returns 1 (0x1)
T3C38 000:480.590 JLINK_ReadMemU32(0xE000E004, 0x1 Items)
T3C38 000:480.653   CPU_ReadMem(4 bytes @ 0xE000E004)
T3C38 000:481.646   Data:  02 00 00 00
T3C38 000:481.789 - 1.220ms returns 1 (0x1)
T3C38 000:481.863 JLINK_WriteMemEx(0xE0001000, 0x0000001C Bytes, Flags = 0x02000004)
T3C38 000:481.912   Data:  01 00 00 00 00 00 00 00 00 00 00 00 00 00 00 00 ...
T3C38 000:482.013   CPU_WriteMem(28 bytes @ 0xE0001000)
T3C38 000:483.202 - 1.401ms returns 0x1C
T3C38 000:483.311 JLINK_HasError()
T3C38 000:483.391 JLINK_ReadReg(R15 (PC))
T3C38 000:483.445 - 0.072ms returns 0x0800027C
T3C38 000:483.490 JLINK_ReadReg(XPSR)
T3C38 000:483.527 - 0.054ms returns 0x01000000
T3C38 000:508.271 JLINK_ReadMemEx(0xE0001004, 0x4 Bytes, Flags = 0x02000000)
T3C38 000:508.398   Data:  00 00 00 00
T3C38 000:508.450   Debug reg: DWT_CYCCNT
T3C38 000:508.495 - 0.240ms returns 4 (0x4)
T3C38 000:634.044 JLINK_ReadMemEx(0x08000000, 0x1000 Bytes, Flags = 0x02000000)
T3C38 000:634.100   CPU_ReadMem(4096 bytes @ 0x08000000)
T3C38 000:676.159    -- Updating C cache (4096 bytes @ 0x08000000)
T3C38 000:676.219    -- Read from C cache (4096 bytes @ 0x08000000)
T3C38 000:676.261   Data:  50 33 02 20 7D 02 00 08 A1 6C 00 08 0D 5D 00 08 ...
T3C38 000:676.279 - 42.242ms returns 4096 (0x1000)
T3C38 000:677.565 JLINK_ReadMemEx(0x08001000, 0x1000 Bytes, Flags = 0x02000000)
T3C38 000:677.624   CPU_ReadMem(4096 bytes @ 0x08001000)
T3C38 000:719.873    -- Updating C cache (4096 bytes @ 0x08001000)
T3C38 000:719.992    -- Read from C cache (4096 bytes @ 0x08001000)
T3C38 000:720.094   Data:  18 0A 96 ED 02 0A 8D ED 19 0A 97 ED 00 0A 8D ED ...
T3C38 000:720.141 - 42.593ms returns 4096 (0x1000)
T3C38 000:722.224 JLINK_ReadMemEx(0x08002000, 0x1000 Bytes, Flags = 0x02000000)
T3C38 000:722.323   CPU_ReadMem(4096 bytes @ 0x08002000)
T3C38 000:764.942    -- Updating C cache (4096 bytes @ 0x08002000)
T3C38 000:765.060    -- Read from C cache (4096 bytes @ 0x08002000)
T3C38 000:765.160   Data:  00 EB 01 20 00 B2 0C 49 48 80 A1 7B 60 7B 01 EB ...
T3C38 000:765.207 - 43.000ms returns 4096 (0x1000)
T3C38 000:768.189 JLINK_ReadMemEx(0x08003000, 0x1000 Bytes, Flags = 0x02000000)
T3C38 000:768.299   CPU_ReadMem(4096 bytes @ 0x08003000)
T3C38 000:810.934    -- Updating C cache (4096 bytes @ 0x08003000)
T3C38 000:811.052    -- Read from C cache (4096 bytes @ 0x08003000)
T3C38 000:811.152   Data:  FD F7 96 FB C4 E9 04 01 94 ED 01 0A D4 ED 08 0A ...
T3C38 000:811.199 - 43.026ms returns 4096 (0x1000)
T3C38 000:813.338 JLINK_ReadMemEx(0x08004000, 0x1000 Bytes, Flags = 0x02000000)
T3C38 000:813.445   CPU_ReadMem(4096 bytes @ 0x08004000)
T3C38 000:856.096    -- Updating C cache (4096 bytes @ 0x08004000)
T3C38 000:856.224    -- Read from C cache (4096 bytes @ 0x08004000)
T3C38 000:856.325   Data:  22 B1 43 69 43 F0 80 03 43 61 03 E0 43 69 23 F0 ...
T3C38 000:856.372 - 43.050ms returns 4096 (0x1000)
T3C38 000:858.492 JLINK_ReadMemEx(0x08005000, 0x1000 Bytes, Flags = 0x02000000)
T3C38 000:858.585   CPU_ReadMem(4096 bytes @ 0x08005000)
T3C38 000:901.135    -- Updating C cache (4096 bytes @ 0x08005000)
T3C38 000:901.253    -- Read from C cache (4096 bytes @ 0x08005000)
T3C38 000:901.355   Data:  10 FA 09 D2 94 ED 10 0A B1 EE 40 0A 84 ED 0E 0A ...
T3C38 000:901.401 - 42.926ms returns 4096 (0x1000)
T3C38 000:903.473 JLINK_ReadMemEx(0x08006000, 0x1000 Bytes, Flags = 0x02000000)
T3C38 000:903.565   CPU_ReadMem(4096 bytes @ 0x08006000)
T3C38 000:946.184    -- Updating C cache (4096 bytes @ 0x08006000)
T3C38 000:946.308    -- Read from C cache (4096 bytes @ 0x08006000)
T3C38 000:946.410   Data:  82 48 D0 ED 00 0A 20 EE 20 0A 7F 48 D0 ED 01 0A ...
T3C38 000:946.457 - 43.001ms returns 4096 (0x1000)
T3C38 000:948.571 JLINK_ReadMemEx(0x08007000, 0x1000 Bytes, Flags = 0x02000000)
T3C38 000:948.663   CPU_ReadMem(4096 bytes @ 0x08007000)
T3C38 000:991.340    -- Updating C cache (4096 bytes @ 0x08007000)
T3C38 000:991.457    -- Read from C cache (4096 bytes @ 0x08007000)
T3C38 000:991.558   Data:  00 0A B1 EE 40 1A F4 EE C1 0A F1 EE 10 FA 03 D2 ...
T3C38 000:991.605 - 43.051ms returns 4096 (0x1000)
T3C38 000:993.720 JLINK_ReadMemEx(0x08008000, 0x1000 Bytes, Flags = 0x02000000)
T3C38 000:993.813   CPU_ReadMem(4096 bytes @ 0x08008000)
T3C38 001:036.365    -- Updating C cache (4096 bytes @ 0x08008000)
T3C38 001:036.480    -- Read from C cache (4096 bytes @ 0x08008000)
T3C38 001:036.580   Data:  0F 20 09 90 02 20 8D F8 28 00 03 20 8D F8 29 00 ...
T3C38 001:036.627 - 42.923ms returns 4096 (0x1000)
T3C38 001:038.765 JLINK_ReadMemEx(0x08009000, 0x1000 Bytes, Flags = 0x02000000)
T3C38 001:038.874   CPU_ReadMem(4096 bytes @ 0x08009000)
T3C38 001:081.302    -- Updating C cache (4096 bytes @ 0x08009000)
T3C38 001:081.415    -- Read from C cache (4096 bytes @ 0x08009000)
T3C38 001:081.517   Data:  00 50 00 40 00 14 01 40 00 78 00 40 00 7C 00 40 ...
T3C38 001:081.565 - 42.817ms returns 4096 (0x1000)
T3C38 001:083.628 JLINK_ReadMemEx(0x0800A000, 0x1000 Bytes, Flags = 0x02000000)
T3C38 001:083.715   CPU_ReadMem(4096 bytes @ 0x0800A000)
T3C38 001:126.263    -- Updating C cache (4096 bytes @ 0x0800A000)
T3C38 001:126.368    -- Read from C cache (4096 bytes @ 0x0800A000)
T3C38 001:126.467   Data:  02 90 E0 68 C0 68 02 90 02 98 20 F0 40 00 02 90 ...
T3C38 001:126.513 - 42.901ms returns 4096 (0x1000)
T3C38 001:128.600 JLINK_ReadMemEx(0x0800B000, 0x1000 Bytes, Flags = 0x02000000)
T3C38 001:128.724   CPU_ReadMem(4096 bytes @ 0x0800B000)
T3C38 001:171.126    -- Updating C cache (4096 bytes @ 0x0800B000)
T3C38 001:174.661    -- Read from C cache (4096 bytes @ 0x0800B000)
T3C38 001:174.768   Data:  C8 70 08 48 00 79 08 71 06 48 40 79 48 71 05 48 ...
T3C38 001:174.816 - 46.233ms returns 4096 (0x1000)
T3C38 001:177.106 JLINK_ReadMemEx(0x0800C000, 0x1000 Bytes, Flags = 0x02000000)
T3C38 001:177.338   CPU_ReadMem(4096 bytes @ 0x0800C000)
T3C38 001:219.933    -- Updating C cache (4096 bytes @ 0x0800C000)
T3C38 001:220.043    -- Read from C cache (4096 bytes @ 0x0800C000)
T3C38 001:220.143   Data:  48 1E 0C 90 00 29 F2 DC 02 98 00 28 EF D1 79 1E ...
T3C38 001:220.189 - 43.100ms returns 4096 (0x1000)
T3C38 001:222.358 JLINK_ReadMemEx(0x0800D000, 0x1000 Bytes, Flags = 0x02000000)
T3C38 001:222.456   CPU_ReadMem(4096 bytes @ 0x0800D000)
T3C38 001:264.780    -- Updating C cache (4096 bytes @ 0x0800D000)
T3C38 001:264.889    -- Read from C cache (4096 bytes @ 0x0800D000)
T3C38 001:265.026   Data:  C4 E9 04 01 94 ED 01 0A D4 ED 0B 0A 20 EE 20 0A ...
T3C38 001:265.114 - 42.774ms returns 4096 (0x1000)
T3C38 001:267.075 JLINK_ReadMemEx(0x0800E000, 0x1000 Bytes, Flags = 0x02000000)
T3C38 001:267.160   CPU_ReadMem(4096 bytes @ 0x0800E000)
T3C38 001:309.586    -- Updating C cache (4096 bytes @ 0x0800E000)
T3C38 001:309.774    -- Read from C cache (4096 bytes @ 0x0800E000)
T3C38 001:309.900   Data:  00 72 CD E9 00 10 1F A1 22 48 01 F0 51 FA 22 48 ...
T3C38 001:309.970 - 42.916ms returns 4096 (0x1000)
T3C38 001:312.553 JLINK_ReadMemEx(0x0800F000, 0x1000 Bytes, Flags = 0x02000000)
T3C38 001:312.688   CPU_ReadMem(4096 bytes @ 0x0800F000)
T3C38 001:355.268    -- Updating C cache (4096 bytes @ 0x0800F000)
T3C38 001:355.390    -- Read from C cache (4096 bytes @ 0x0800F000)
T3C38 001:355.495   Data:  22 6C 21 68 00 FB 02 10 E0 60 FF 20 84 F8 44 00 ...
T3C38 001:355.544 - 43.009ms returns 4096 (0x1000)
T3C38 001:358.052 JLINK_ReadMemEx(0x08010000, 0x94C Bytes, Flags = 0x02000000)
T3C38 001:358.164   CPU_ReadMem(2432 bytes @ 0x08010000)
T3C38 001:383.385    -- Updating C cache (2432 bytes @ 0x08010000)
T3C38 001:383.501    -- Read from C cache (2380 bytes @ 0x08010000)
T3C38 001:383.584   Data:  D9 F6 15 3F C0 7F 18 3F C6 02 1B 3F D1 7F 1D 3F ...
T3C38 001:383.631 - 25.595ms returns 2380 (0x94C)
T3C38 001:451.208 JLINK_HasError()
T3C38 001:451.313 JLINK_SetResetType(JLINKARM_CM3_RESET_TYPE_NORMAL)
T3C38 001:451.349 - 0.052ms returns JLINKARM_CM3_RESET_TYPE_NORMAL
T3C38 001:451.391 JLINK_Reset()
T3C38 001:451.586   CPU_WriteMem(4 bytes @ 0xE000EDF0)
T3C38 001:452.508   CPU_WriteMem(4 bytes @ 0xE000EDFC)
T3C38 001:453.519   Reset: Halt core after reset via DEMCR.VC_CORERESET.
T3C38 001:454.615   Reset: Reset device via AIRCR.SYSRESETREQ.
T3C38 001:454.714   CPU_WriteMem(4 bytes @ 0xE000ED0C)
T3C38 001:508.788   CPU_ReadMem(4 bytes @ 0xE000EDF0)
T3C38 001:509.657   CPU_ReadMem(4 bytes @ 0xE000EDF0)
T3C38 001:510.490   CPU_WriteMem(4 bytes @ 0xE000EDF0)
T3C38 001:511.352   CPU_WriteMem(4 bytes @ 0xE000EDFC)
T3C38 001:517.848   CPU_ReadMem(4 bytes @ 0xE000EDF0)
T3C38 001:522.912   CPU_WriteMem(4 bytes @ 0xE0002000)
T3C38 001:524.022   CPU_ReadMem(4 bytes @ 0xE000EDFC)
T3C38 001:524.898   CPU_ReadMem(4 bytes @ 0xE0001000)
T3C38 001:525.822 - 74.499ms
T3C38 001:526.413 JLINK_HasError()
T3C38 001:526.493 JLINK_ReadReg(R15 (PC))
T3C38 001:526.572 - 0.100ms returns 0x0800027C
T3C38 001:526.623 JLINK_ReadReg(XPSR)
T3C38 001:526.662 - 0.058ms returns 0x01000000
T3C38 001:528.130 JLINK_ReadMemEx(0x0800027C, 0x3C Bytes, Flags = 0x02000000)
T3C38 001:528.273   CPU_ReadMem(128 bytes @ 0x08000240)
T3C38 001:530.360    -- Updating C cache (128 bytes @ 0x08000240)
T3C38 001:530.470    -- Read from C cache (60 bytes @ 0x0800027C)
T3C38 001:530.524   Data:  09 48 01 68 41 F4 70 01 01 60 08 48 80 47 08 48 ...
T3C38 001:530.570 - 2.456ms returns 60 (0x3C)
T3C38 001:530.623 JLINK_ReadMemEx(0x0800027C, 0x2 Bytes, Flags = 0x02000000)
T3C38 001:530.663    -- Read from C cache (2 bytes @ 0x0800027C)
T3C38 001:530.709   Data:  09 48
T3C38 001:530.755 - 0.148ms returns 2 (0x2)
T3C38 001:531.069 JLINK_ReadMemEx(0x0800027E, 0x2 Bytes, Flags = 0x02000000)
T3C38 001:531.110    -- Read from C cache (2 bytes @ 0x0800027E)
T3C38 001:531.156   Data:  01 68
T3C38 001:531.213 - 0.159ms returns 2 (0x2)
T3C38 001:531.292 JLINK_ReadMemEx(0x0800027E, 0x2 Bytes, Flags = 0x02000000)
T3C38 001:531.488    -- Read from C cache (2 bytes @ 0x0800027E)
T3C38 001:531.549   Data:  01 68
T3C38 001:531.595 - 0.319ms returns 2 (0x2)
T3C38 001:531.639 JLINK_ReadMemEx(0x08000280, 0x3C Bytes, Flags = 0x02000000)
T3C38 001:531.675    -- Read from C cache (60 bytes @ 0x08000280)
T3C38 001:531.724   Data:  41 F4 70 01 01 60 08 48 80 47 08 48 00 47 FE E7 ...
T3C38 001:531.768 - 0.144ms returns 60 (0x3C)
T3C38 001:531.809 JLINK_ReadMemEx(0x08000280, 0x2 Bytes, Flags = 0x02000000)
T3C38 001:531.843    -- Read from C cache (2 bytes @ 0x08000280)
T3C38 001:531.888   Data:  41 F4
T3C38 001:531.933 - 0.140ms returns 2 (0x2)
T3C38 005:574.489 JLINK_HasError()
T3C38 005:574.537 JLINK_ReadReg(R0)
T3C38 005:575.022 - 0.496ms returns 0x00000000
T3C38 005:575.045 JLINK_ReadReg(R1)
T3C38 005:575.058 - 0.018ms returns 0x00000000
T3C38 005:575.072 JLINK_ReadReg(R2)
T3C38 005:575.083 - 0.017ms returns 0x00000000
T3C38 005:575.097 JLINK_ReadReg(R3)
T3C38 005:575.108 - 0.016ms returns 0x00000000
T3C38 005:575.122 JLINK_ReadReg(R4)
T3C38 005:575.133 - 0.016ms returns 0x00000000
T3C38 005:575.146 JLINK_ReadReg(R5)
T3C38 005:575.157 - 0.016ms returns 0x00000000
T3C38 005:575.171 JLINK_ReadReg(R6)
T3C38 005:575.182 - 0.016ms returns 0x00000000
T3C38 005:575.195 JLINK_ReadReg(R7)
T3C38 005:575.207 - 0.016ms returns 0x00000000
T3C38 005:575.220 JLINK_ReadReg(R8)
T3C38 005:575.240 - 0.025ms returns 0x00000000
T3C38 005:575.253 JLINK_ReadReg(R9)
T3C38 005:575.264 - 0.016ms returns 0x00000000
T3C38 005:575.277 JLINK_ReadReg(R10)
T3C38 005:575.288 - 0.015ms returns 0x00000000
T3C38 005:575.301 JLINK_ReadReg(R11)
T3C38 005:575.311 - 0.015ms returns 0x00000000
T3C38 005:575.324 JLINK_ReadReg(R12)
T3C38 005:575.335 - 0.015ms returns 0x00000000
T3C38 005:575.348 JLINK_ReadReg(R13 (SP))
T3C38 005:575.359 - 0.016ms returns 0x20023350
T3C38 005:575.372 JLINK_ReadReg(R14)
T3C38 005:575.383 - 0.015ms returns 0xFFFFFFFF
T3C38 005:575.396 JLINK_ReadReg(R15 (PC))
T3C38 005:575.406 - 0.016ms returns 0x0800027C
T3C38 005:575.419 JLINK_ReadReg(XPSR)
T3C38 005:575.430 - 0.016ms returns 0x01000000
T3C38 005:575.443 JLINK_ReadReg(MSP)
T3C38 005:575.454 - 0.016ms returns 0x20023350
T3C38 005:575.467 JLINK_ReadReg(PSP)
T3C38 005:575.477 - 0.015ms returns 0x00000000
T3C38 005:575.490 JLINK_ReadReg(CFBP)
T3C38 005:575.501 - 0.015ms returns 0x00000000
T3C38 005:575.514 JLINK_ReadReg(FPSCR)
T3C38 005:581.072 - 5.589ms returns 0x00000000
T3C38 005:581.119 JLINK_ReadReg(FPS0)
T3C38 005:581.168 - 0.055ms returns 0x00000000
T3C38 005:581.183 JLINK_ReadReg(FPS1)
T3C38 005:581.195 - 0.017ms returns 0x00000000
T3C38 005:581.209 JLINK_ReadReg(FPS2)
T3C38 005:581.220 - 0.017ms returns 0x00000000
T3C38 005:581.234 JLINK_ReadReg(FPS3)
T3C38 005:581.245 - 0.016ms returns 0x00000000
T3C38 005:581.258 JLINK_ReadReg(FPS4)
T3C38 005:581.270 - 0.016ms returns 0x00000000
T3C38 005:581.283 JLINK_ReadReg(FPS5)
T3C38 005:581.294 - 0.016ms returns 0x00000000
T3C38 005:581.308 JLINK_ReadReg(FPS6)
T3C38 005:581.319 - 0.016ms returns 0x00000000
T3C38 005:581.333 JLINK_ReadReg(FPS7)
T3C38 005:581.344 - 0.016ms returns 0x00000000
T3C38 005:581.357 JLINK_ReadReg(FPS8)
T3C38 005:581.368 - 0.016ms returns 0x00000000
T3C38 005:581.382 JLINK_ReadReg(FPS9)
T3C38 005:581.393 - 0.016ms returns 0x00000000
T3C38 005:581.407 JLINK_ReadReg(FPS10)
T3C38 005:581.418 - 0.016ms returns 0x00000000
T3C38 005:581.431 JLINK_ReadReg(FPS11)
T3C38 005:581.442 - 0.016ms returns 0x00000000
T3C38 005:581.456 JLINK_ReadReg(FPS12)
T3C38 005:581.467 - 0.016ms returns 0x00000000
T3C38 005:581.481 JLINK_ReadReg(FPS13)
T3C38 005:581.492 - 0.016ms returns 0x00000000
T3C38 005:581.505 JLINK_ReadReg(FPS14)
T3C38 005:581.517 - 0.016ms returns 0x00000000
T3C38 005:581.530 JLINK_ReadReg(FPS15)
T3C38 005:581.541 - 0.016ms returns 0x00000000
T3C38 005:581.555 JLINK_ReadReg(FPS16)
T3C38 005:581.566 - 0.016ms returns 0x00000000
T3C38 005:581.579 JLINK_ReadReg(FPS17)
T3C38 005:581.591 - 0.016ms returns 0x00000000
T3C38 005:581.604 JLINK_ReadReg(FPS18)
T3C38 005:581.623 - 0.024ms returns 0x00000000
T3C38 005:581.637 JLINK_ReadReg(FPS19)
T3C38 005:581.652 - 0.020ms returns 0x00000000
T3C38 005:581.666 JLINK_ReadReg(FPS20)
T3C38 005:581.685 - 0.024ms returns 0x00000000
T3C38 005:581.699 JLINK_ReadReg(FPS21)
T3C38 005:581.710 - 0.016ms returns 0x00000000
T3C38 005:581.723 JLINK_ReadReg(FPS22)
T3C38 005:581.734 - 0.016ms returns 0x00000000
T3C38 005:581.748 JLINK_ReadReg(FPS23)
T3C38 005:581.759 - 0.016ms returns 0x00000000
T3C38 005:581.773 JLINK_ReadReg(FPS24)
T3C38 005:581.784 - 0.016ms returns 0x00000000
T3C38 005:581.797 JLINK_ReadReg(FPS25)
T3C38 005:581.808 - 0.016ms returns 0x00000000
T3C38 005:581.822 JLINK_ReadReg(FPS26)
T3C38 005:581.833 - 0.016ms returns 0x00000000
T3C38 005:581.847 JLINK_ReadReg(FPS27)
T3C38 005:581.858 - 0.016ms returns 0x00000000
T3C38 005:581.871 JLINK_ReadReg(FPS28)
T3C38 005:581.883 - 0.016ms returns 0x00000000
T3C38 005:581.896 JLINK_ReadReg(FPS29)
T3C38 005:581.907 - 0.016ms returns 0x00000000
T3C38 005:581.921 JLINK_ReadReg(FPS30)
T3C38 005:581.932 - 0.016ms returns 0x00000000
T3C38 005:581.945 JLINK_ReadReg(FPS31)
T3C38 005:581.957 - 0.016ms returns 0x00000000
T5350 005:717.233 JLINK_ReadMemEx(0x0800027C, 0x2 Bytes, Flags = 0x02000000)
T5350 005:717.275    -- Read from C cache (2 bytes @ 0x0800027C)
T5350 005:717.292   Data:  09 48
T5350 005:717.309 - 0.081ms returns 2 (0x2)
T5350 005:717.325 JLINK_HasError()
T5350 005:717.341 JLINK_SetBPEx(Addr = 0x0800CBD8, Type = 0xFFFFFFF2)
T5350 005:717.368 - 0.033ms returns 0x00000001
T5350 005:717.383 JLINK_HasError()
T5350 005:717.397 JLINK_HasError()
T5350 005:717.410 JLINK_Go()
T5350 005:717.430   CPU_WriteMem(4 bytes @ 0xE0002000)
T5350 005:718.061   CPU_ReadMem(4 bytes @ 0xE0001000)
T5350 005:718.571   CPU_WriteMem(4 bytes @ 0xE0002008)
T5350 005:718.599   CPU_WriteMem(4 bytes @ 0xE000200C)
T5350 005:718.617   CPU_WriteMem(4 bytes @ 0xE0002010)
T5350 005:718.633   CPU_WriteMem(4 bytes @ 0xE0002014)
T5350 005:718.649   CPU_WriteMem(4 bytes @ 0xE0002018)
T5350 005:718.666   CPU_WriteMem(4 bytes @ 0xE000201C)
T5350 005:721.009   CPU_WriteMem(4 bytes @ 0xE0001004)
T5350 005:722.064 - 4.669ms
T5350 005:822.602 JLINK_HasError()
T5350 005:822.688 JLINK_IsHalted()
T5350 005:826.073 - 3.405ms returns TRUE
T5350 005:826.108 JLINK_HasError()
T5350 005:826.123 JLINK_Halt()
T5350 005:826.134 - 0.017ms returns 0x00
T5350 005:826.149 JLINK_IsHalted()
T5350 005:826.161 - 0.018ms returns TRUE
T5350 005:826.176 JLINK_IsHalted()
T5350 005:826.187 - 0.017ms returns TRUE
T5350 005:826.204 JLINK_IsHalted()
T5350 005:826.219 - 0.021ms returns TRUE
T5350 005:826.234 JLINK_HasError()
T5350 005:826.248 JLINK_ReadReg(R15 (PC))
T5350 005:826.262 - 0.020ms returns 0x0800CBD8
T5350 005:826.277 JLINK_ReadReg(XPSR)
T5350 005:826.290 - 0.018ms returns 0x61000000
T5350 005:826.307 JLINK_HasError()
T5350 005:826.321 JLINK_ClrBPEx(BPHandle = 0x00000001)
T5350 005:826.333 - 0.017ms returns 0x00
T5350 005:826.347 JLINK_HasError()
T5350 005:826.360 JLINK_HasError()
T5350 005:826.373 JLINK_ReadMemU32(0xE000ED30, 0x1 Items)
T5350 005:826.392   CPU_ReadMem(4 bytes @ 0xE000ED30)
T5350 005:826.845   Data:  03 00 00 00
T5350 005:826.867 - 0.499ms returns 1 (0x1)
T5350 005:826.884 JLINK_ReadMemU32(0xE0001028, 0x1 Items)
T5350 005:826.902   CPU_ReadMem(4 bytes @ 0xE0001028)
T5350 005:827.336   Data:  00 00 00 00
T5350 005:827.366   Debug reg: DWT_FUNC[0]
T5350 005:827.382 - 0.503ms returns 1 (0x1)
T5350 005:827.398 JLINK_ReadMemU32(0xE0001038, 0x1 Items)
T5350 005:827.415   CPU_ReadMem(4 bytes @ 0xE0001038)
T5350 005:827.860   Data:  00 02 00 00
T5350 005:827.881   Debug reg: DWT_FUNC[1]
T5350 005:827.897 - 0.504ms returns 1 (0x1)
T5350 005:827.913 JLINK_ReadMemU32(0xE0001048, 0x1 Items)
T5350 005:827.931   CPU_ReadMem(4 bytes @ 0xE0001048)
T5350 005:828.364   Data:  00 00 00 00
T5350 005:828.385   Debug reg: DWT_FUNC[2]
T5350 005:828.401 - 0.492ms returns 1 (0x1)
T5350 005:828.419 JLINK_ReadMemU32(0xE0001058, 0x1 Items)
T5350 005:828.440   CPU_ReadMem(4 bytes @ 0xE0001058)
T5350 005:828.875   Data:  00 00 00 00
T5350 005:828.896   Debug reg: DWT_FUNC[3]
T5350 005:828.912 - 0.498ms returns 1 (0x1)
T5350 005:829.027 JLINK_HasError()
T5350 005:829.044 JLINK_ReadReg(R0)
T5350 005:829.058 - 0.019ms returns 0x0800CBD9
T5350 005:829.072 JLINK_ReadReg(R1)
T5350 005:829.084 - 0.017ms returns 0x20023350
T5350 005:829.098 JLINK_ReadReg(R2)
T5350 005:829.109 - 0.017ms returns 0x00000000
T5350 005:829.123 JLINK_ReadReg(R3)
T5350 005:829.135 - 0.017ms returns 0x0800B899
T5350 005:829.149 JLINK_ReadReg(R4)
T5350 005:829.160 - 0.017ms returns 0x080107F8
T5350 005:829.174 JLINK_ReadReg(R5)
T5350 005:829.186 - 0.017ms returns 0x080107F8
T5350 005:829.200 JLINK_ReadReg(R6)
T5350 005:829.212 - 0.017ms returns 0x00000000
T5350 005:829.226 JLINK_ReadReg(R7)
T5350 005:829.237 - 0.017ms returns 0x00000000
T5350 005:829.251 JLINK_ReadReg(R8)
T5350 005:829.263 - 0.017ms returns 0x00000000
T5350 005:829.277 JLINK_ReadReg(R9)
T5350 005:829.288 - 0.017ms returns 0x00000000
T5350 005:829.302 JLINK_ReadReg(R10)
T5350 005:829.314 - 0.017ms returns 0x00000000
T5350 005:829.327 JLINK_ReadReg(R11)
T5350 005:829.339 - 0.017ms returns 0x00000000
T5350 005:829.353 JLINK_ReadReg(R12)
T5350 005:829.364 - 0.016ms returns 0x00000000
T5350 005:829.378 JLINK_ReadReg(R13 (SP))
T5350 005:829.390 - 0.017ms returns 0x20023350
T5350 005:829.403 JLINK_ReadReg(R14)
T5350 005:829.415 - 0.017ms returns 0x08000A35
T5350 005:829.429 JLINK_ReadReg(R15 (PC))
T5350 005:829.441 - 0.017ms returns 0x0800CBD8
T5350 005:829.455 JLINK_ReadReg(XPSR)
T5350 005:829.466 - 0.017ms returns 0x61000000
T5350 005:829.480 JLINK_ReadReg(MSP)
T5350 005:829.492 - 0.017ms returns 0x20023350
T5350 005:829.506 JLINK_ReadReg(PSP)
T5350 005:829.517 - 0.017ms returns 0x00000000
T5350 005:829.531 JLINK_ReadReg(CFBP)
T5350 005:829.543 - 0.017ms returns 0x00000000
T5350 005:829.557 JLINK_ReadReg(FPSCR)
T5350 005:834.499 - 4.966ms returns 0x00000000
T5350 005:834.538 JLINK_ReadReg(FPS0)
T5350 005:834.554 - 0.022ms returns 0x00000000
T5350 005:834.569 JLINK_ReadReg(FPS1)
T5350 005:834.580 - 0.017ms returns 0x00000000
T5350 005:834.594 JLINK_ReadReg(FPS2)
T5350 005:834.605 - 0.017ms returns 0x00000000
T5350 005:834.619 JLINK_ReadReg(FPS3)
T5350 005:834.630 - 0.018ms returns 0x00000000
T5350 005:834.646 JLINK_ReadReg(FPS4)
T5350 005:834.657 - 0.018ms returns 0x00000000
T5350 005:834.674 JLINK_ReadReg(FPS5)
T5350 005:834.685 - 0.016ms returns 0x00000000
T5350 005:834.699 JLINK_ReadReg(FPS6)
T5350 005:834.710 - 0.016ms returns 0x00000000
T5350 005:834.724 JLINK_ReadReg(FPS7)
T5350 005:834.735 - 0.016ms returns 0x00000000
T5350 005:834.749 JLINK_ReadReg(FPS8)
T5350 005:834.763 - 0.018ms returns 0x00000000
T5350 005:834.777 JLINK_ReadReg(FPS9)
T5350 005:834.788 - 0.016ms returns 0x00000000
T5350 005:834.802 JLINK_ReadReg(FPS10)
T5350 005:834.813 - 0.016ms returns 0x00000000
T5350 005:834.827 JLINK_ReadReg(FPS11)
T5350 005:834.838 - 0.016ms returns 0x00000000
T5350 005:834.851 JLINK_ReadReg(FPS12)
T5350 005:834.862 - 0.016ms returns 0x00000000
T5350 005:834.876 JLINK_ReadReg(FPS13)
T5350 005:834.887 - 0.016ms returns 0x00000000
T5350 005:834.900 JLINK_ReadReg(FPS14)
T5350 005:834.912 - 0.018ms returns 0x00000000
T5350 005:834.930 JLINK_ReadReg(FPS15)
T5350 005:834.942 - 0.017ms returns 0x00000000
T5350 005:834.955 JLINK_ReadReg(FPS16)
T5350 005:834.977 - 0.028ms returns 0x00000000
T5350 005:834.992 JLINK_ReadReg(FPS17)
T5350 005:835.003 - 0.016ms returns 0x00000000
T5350 005:835.016 JLINK_ReadReg(FPS18)
T5350 005:835.027 - 0.016ms returns 0x00000000
T5350 005:835.041 JLINK_ReadReg(FPS19)
T5350 005:835.052 - 0.016ms returns 0x00000000
T5350 005:835.066 JLINK_ReadReg(FPS20)
T5350 005:835.077 - 0.016ms returns 0x00000000
T5350 005:835.092 JLINK_ReadReg(FPS21)
T5350 005:835.105 - 0.019ms returns 0x00000000
T5350 005:835.120 JLINK_ReadReg(FPS22)
T5350 005:835.131 - 0.016ms returns 0x00000000
T5350 005:835.144 JLINK_ReadReg(FPS23)
T5350 005:835.156 - 0.021ms returns 0x00000000
T5350 005:835.177 JLINK_ReadReg(FPS24)
T5350 005:835.189 - 0.017ms returns 0x00000000
T5350 005:835.203 JLINK_ReadReg(FPS25)
T5350 005:835.215 - 0.020ms returns 0x00000000
T5350 005:835.233 JLINK_ReadReg(FPS26)
T5350 005:835.244 - 0.016ms returns 0x00000000
T5350 005:835.258 JLINK_ReadReg(FPS27)
T5350 005:835.269 - 0.016ms returns 0x00000000
T5350 005:835.282 JLINK_ReadReg(FPS28)
T5350 005:835.295 - 0.018ms returns 0x00000000
T5350 005:835.309 JLINK_ReadReg(FPS29)
T5350 005:835.320 - 0.016ms returns 0x00000000
T5350 005:835.333 JLINK_ReadReg(FPS30)
T5350 005:835.345 - 0.016ms returns 0x00000000
T5350 005:835.358 JLINK_ReadReg(FPS31)
T5350 005:835.371 - 0.020ms returns 0x00000000
T5350 005:835.393 JLINK_ReadMemEx(0x20000050, 0x4 Bytes, Flags = 0x02000000)
T5350 005:835.416   CPU_ReadMem(64 bytes @ 0x20000040)
T5350 005:836.535    -- Updating C cache (64 bytes @ 0x20000040)
T5350 005:836.577    -- Read from C cache (4 bytes @ 0x20000050)
T5350 005:836.601   Data:  00 00 00 00
T5350 005:836.624 - 1.239ms returns 4 (0x4)
T3C38 005:843.527 JLINK_HasError()
T3C38 005:843.563 JLINK_ReadMemU32(0xE0001004, 0x1 Items)
T3C38 005:843.593   CPU_ReadMem(4 bytes @ 0xE0001004)
T3C38 005:844.156   Data:  F5 9E 03 00
T3C38 005:844.184   Debug reg: DWT_CYCCNT
T3C38 005:844.202 - 0.644ms returns 1 (0x1)
T3C38 005:849.770 JLINK_ReadMemEx(0x0800CBD8, 0x3C Bytes, Flags = 0x02000000)
T3C38 005:849.833   CPU_ReadMem(128 bytes @ 0x0800CBC0)
T3C38 005:851.685    -- Updating C cache (128 bytes @ 0x0800CBC0)
T3C38 005:851.738    -- Read from C cache (60 bytes @ 0x0800CBD8)
T3C38 005:851.760   Data:  4F F4 7A 70 FF F7 62 FD 0A 20 FF F7 95 FD 4F F4 ...
T3C38 005:851.777 - 2.013ms returns 60 (0x3C)
T3C38 005:851.797 JLINK_ReadMemEx(0x0800CBD8, 0x2 Bytes, Flags = 0x02000000)
T3C38 005:851.811    -- Read from C cache (2 bytes @ 0x0800CBD8)
T3C38 005:851.827   Data:  4F F4
T3C38 005:851.842 - 0.050ms returns 2 (0x2)
T3C38 005:851.858 JLINK_ReadMemEx(0x0800CBDA, 0x2 Bytes, Flags = 0x02000000)
T3C38 005:851.870    -- Read from C cache (2 bytes @ 0x0800CBDA)
T3C38 005:851.885   Data:  7A 70
T3C38 005:851.900 - 0.047ms returns 2 (0x2)
T3C38 005:851.932 JLINK_ReadMemEx(0x0800CBDC, 0x3C Bytes, Flags = 0x02000000)
T3C38 005:851.945    -- Read from C cache (60 bytes @ 0x0800CBDC)
T3C38 005:851.962   Data:  FF F7 62 FD 0A 20 FF F7 95 FD 4F F4 40 70 FA F7 ...
T3C38 005:851.977 - 0.049ms returns 60 (0x3C)
T3C38 005:851.990 JLINK_ReadMemEx(0x0800CBDC, 0x2 Bytes, Flags = 0x02000000)
T3C38 005:852.002    -- Read from C cache (2 bytes @ 0x0800CBDC)
T3C38 005:852.017   Data:  FF F7
T3C38 005:852.032 - 0.047ms returns 2 (0x2)
T3C38 005:852.046 JLINK_ReadMemEx(0x0800CBDE, 0x2 Bytes, Flags = 0x02000000)
T3C38 005:852.057    -- Read from C cache (2 bytes @ 0x0800CBDE)
T3C38 005:852.072   Data:  62 FD
T3C38 005:852.087 - 0.046ms returns 2 (0x2)
T3C38 005:852.123 JLINK_ReadMemEx(0x0800CBE0, 0x3C Bytes, Flags = 0x02000000)
T3C38 005:852.136    -- Read from C cache (60 bytes @ 0x0800CBE0)
T3C38 005:852.152   Data:  0A 20 FF F7 95 FD 4F F4 40 70 FA F7 97 F8 72 B6 ...
T3C38 005:852.167 - 0.050ms returns 60 (0x3C)
T3C38 005:852.181 JLINK_ReadMemEx(0x0800CBE0, 0x2 Bytes, Flags = 0x02000000)
T3C38 005:852.192    -- Read from C cache (2 bytes @ 0x0800CBE0)
T3C38 005:852.208   Data:  0A 20
T3C38 005:852.224 - 0.048ms returns 2 (0x2)
T3C38 005:852.237 JLINK_ReadMemEx(0x0800CBE2, 0x2 Bytes, Flags = 0x02000000)
T3C38 005:852.248    -- Read from C cache (2 bytes @ 0x0800CBE2)
T3C38 005:852.263   Data:  FF F7
T3C38 005:852.279 - 0.048ms returns 2 (0x2)
T5350 007:816.585 JLINK_ReadMemEx(0x0800CBD8, 0x2 Bytes, Flags = 0x02000000)
T5350 007:816.703    -- Read from C cache (2 bytes @ 0x0800CBD8)
T5350 007:816.773   Data:  4F F4
T5350 007:816.834 - 0.270ms returns 2 (0x2)
T5350 007:816.893 JLINK_HasError()
T5350 007:816.953 JLINK_HasError()
T5350 007:817.009 JLINK_Go()
T5350 007:817.849   CPU_ReadMem(4 bytes @ 0xE0001000)
T5350 007:818.630   CPU_WriteMem(4 bytes @ 0xE0002008)
T5350 007:820.333 - 3.377ms
T5350 007:921.303 JLINK_HasError()
T5350 007:921.413 JLINK_IsHalted()
T5350 007:922.162 - 0.799ms returns FALSE
T5350 008:022.611 JLINK_HasError()
T5350 008:022.728 JLINK_IsHalted()
T5350 008:023.461 - 0.782ms returns FALSE
T5350 008:123.705 JLINK_HasError()
T5350 008:123.819 JLINK_IsHalted()
T5350 008:124.607 - 0.839ms returns FALSE
T5350 008:225.758 JLINK_HasError()
T5350 008:225.898 JLINK_IsHalted()
T5350 008:226.649 - 0.808ms returns FALSE
T5350 008:327.218 JLINK_HasError()
T5350 008:327.330 JLINK_IsHalted()
T5350 008:327.998 - 0.711ms returns FALSE
T5350 008:428.898 JLINK_HasError()
T5350 008:428.988 JLINK_HasError()
T5350 008:429.025 JLINK_ReadMemU32(0xE0001004, 0x1 Items)
T5350 008:429.093   CPU_ReadMem(4 bytes @ 0xE0001004)
T5350 008:429.955   Data:  55 DE 8D 06
T5350 008:430.042   Debug reg: DWT_CYCCNT
T5350 008:430.083 - 1.072ms returns 1 (0x1)
T5350 008:434.104 JLINK_IsHalted()
T5350 008:434.893 - 0.833ms returns FALSE
T5350 008:535.982 JLINK_HasError()
T5350 008:536.088 JLINK_IsHalted()
T5350 008:536.844 - 0.811ms returns FALSE
T5350 008:637.156 JLINK_HasError()
T5350 008:637.271 JLINK_IsHalted()
T5350 008:638.007 - 0.793ms returns FALSE
T5350 008:738.561 JLINK_HasError()
T5350 008:738.654 JLINK_IsHalted()
T5350 008:739.379 - 0.774ms returns FALSE
T5350 008:840.320 JLINK_HasError()
T5350 008:840.437 JLINK_IsHalted()
T5350 008:841.245 - 0.885ms returns FALSE
T5350 008:941.949 JLINK_HasError()
T5350 008:942.046 JLINK_IsHalted()
T5350 008:942.735 - 0.732ms returns FALSE
T5350 009:043.649 JLINK_HasError()
T5350 009:043.750 JLINK_HasError()
T5350 009:043.788 JLINK_ReadMemU32(0xE0001004, 0x1 Items)
T5350 009:043.854   Data:  55 DE 8D 06
T5350 009:043.903   Debug reg: DWT_CYCCNT
T5350 009:043.945 - 0.171ms returns 1 (0x1)
T5350 009:045.897 JLINK_IsHalted()
T5350 009:046.645 - 0.799ms returns FALSE
T5350 009:147.799 JLINK_HasError()
T5350 009:147.913 JLINK_IsHalted()
T5350 009:148.611 - 0.741ms returns FALSE
T5350 009:249.475 JLINK_HasError()
T5350 009:249.613 JLINK_IsHalted()
T5350 009:250.388 - 0.826ms returns FALSE
T5350 009:351.412 JLINK_HasError()
T5350 009:351.514 JLINK_IsHalted()
T5350 009:352.294 - 0.848ms returns FALSE
T2A6C 009:394.280 Looking for J-Link GUI Server exe at: C:\Keil_v5\ARM\Segger\JLinkGUIServer.exe
T2A6C 009:395.121 Looking for J-Link GUI Server exe at: C:\Program Files\SEGGER\JLink\JLinkGUIServer.exe
T2A6C 009:395.300 Forking J-Link GUI Server: C:\Program Files\SEGGER\JLink\JLinkGUIServer.exe
T5350 009:453.080 JLINK_HasError()
T5350 009:453.203 JLINK_IsHalted()
T5350 009:453.918 - 0.766ms returns FALSE
T2A6C 009:511.645 J-Link GUI Server info: "J-Link GUI server V7.58 "
T5350 009:554.363 JLINK_HasError()
T5350 009:554.467 JLINK_HasError()
T5350 009:554.510 JLINK_ReadMemU32(0xE0001004, 0x1 Items)
T5350 009:554.583   Data:  55 DE 8D 06
T5350 009:554.636   Debug reg: DWT_CYCCNT
T5350 009:554.683 - 0.189ms returns 1 (0x1)
T5350 009:560.072 JLINK_IsHalted()
T5350 009:560.989 - 0.967ms returns FALSE
T5350 009:661.439 JLINK_HasError()
T5350 009:661.541 JLINK_IsHalted()
T5350 009:662.254 - 0.764ms returns FALSE
T5350 009:762.823 JLINK_HasError()
T5350 009:762.930 JLINK_IsHalted()
T5350 009:763.721 - 0.842ms returns FALSE
T5350 009:864.017 JLINK_HasError()
T5350 009:864.117 JLINK_IsHalted()
T5350 009:864.902 - 0.837ms returns FALSE
T5350 009:965.792 JLINK_HasError()
T5350 009:965.882 JLINK_IsHalted()
T5350 009:966.520 - 0.670ms returns FALSE
T5350 010:066.997 JLINK_HasError()
T5350 010:067.049 JLINK_IsHalted()
T5350 010:067.500 - 0.469ms returns FALSE
T5350 010:167.800 JLINK_HasError()
T5350 010:167.915 JLINK_HasError()
T5350 010:167.959 JLINK_ReadMemU32(0xE0001004, 0x1 Items)
T5350 010:168.031   Data:  55 DE 8D 06
T5350 010:168.084   Debug reg: DWT_CYCCNT
T5350 010:168.132 - 0.190ms returns 1 (0x1)
T5350 010:170.336 JLINK_IsHalted()
T5350 010:171.108 - 0.822ms returns FALSE
T5350 010:272.370 JLINK_HasError()
T5350 010:272.483 JLINK_IsHalted()
T5350 010:273.151 - 0.719ms returns FALSE
T5350 010:373.726 JLINK_HasError()
T5350 010:373.872 JLINK_IsHalted()
T5350 010:374.642 - 0.824ms returns FALSE
T5350 010:475.144 JLINK_HasError()
T5350 010:475.259 JLINK_IsHalted()
T5350 010:476.008 - 0.805ms returns FALSE
T5350 010:576.692 JLINK_HasError()
T5350 010:576.798 JLINK_IsHalted()
T5350 010:577.616 - 0.877ms returns FALSE
T5350 010:678.800 JLINK_HasError()
T5350 010:678.911 JLINK_HasError()
T5350 010:678.955 JLINK_ReadMemU32(0xE0001004, 0x1 Items)
T5350 010:679.027   Data:  55 DE 8D 06
T5350 010:679.081   Debug reg: DWT_CYCCNT
T5350 010:679.128 - 0.189ms returns 1 (0x1)
T5350 010:681.448 JLINK_IsHalted()
T5350 010:682.264 - 0.868ms returns FALSE
T5350 010:782.965 JLINK_HasError()
T5350 010:783.189 JLINK_IsHalted()
T5350 010:784.089 - 0.965ms returns FALSE
T5350 010:884.640 JLINK_HasError()
T5350 010:884.777 JLINK_IsHalted()
T5350 010:885.480 - 0.754ms returns FALSE
T5350 010:986.253 JLINK_HasError()
T5350 010:986.413 JLINK_IsHalted()
T5350 010:987.226 - 0.941ms returns FALSE
T5350 011:087.940 JLINK_HasError()
T5350 011:088.072 JLINK_IsHalted()
T5350 011:088.802 - 0.783ms returns FALSE
T5350 011:189.688 JLINK_HasError()
T5350 011:189.822 JLINK_Halt()
T5350 011:193.449 - 3.676ms returns 0x00
T5350 011:193.540 JLINK_IsHalted()
T5350 011:193.577 - 0.054ms returns TRUE
T5350 011:193.621 JLINK_IsHalted()
T5350 011:193.656 - 0.051ms returns TRUE
T5350 011:193.699 JLINK_IsHalted()
T5350 011:193.738 - 0.056ms returns TRUE
T5350 011:193.783 JLINK_HasError()
T5350 011:193.827 JLINK_ReadReg(R15 (PC))
T5350 011:193.871 - 0.062ms returns 0x08005D0E
T5350 011:193.916 JLINK_ReadReg(XPSR)
T5350 011:193.954 - 0.055ms returns 0x81000003
T5350 011:194.008 JLINK_HasError()
T5350 011:194.052 JLINK_HasError()
T5350 011:194.093 JLINK_ReadMemU32(0xE000ED30, 0x1 Items)
T5350 011:194.152   CPU_ReadMem(4 bytes @ 0xE000ED30)
T5350 011:194.853   Data:  01 00 00 00
T5350 011:194.927 - 0.850ms returns 1 (0x1)
T5350 011:194.979 JLINK_ReadMemU32(0xE0001028, 0x1 Items)
T5350 011:195.035   CPU_ReadMem(4 bytes @ 0xE0001028)
T5350 011:195.676   Data:  00 00 00 00
T5350 011:195.747   Debug reg: DWT_FUNC[0]
T5350 011:195.800 - 0.837ms returns 1 (0x1)
T5350 011:195.850 JLINK_ReadMemU32(0xE0001038, 0x1 Items)
T5350 011:195.904   CPU_ReadMem(4 bytes @ 0xE0001038)
T5350 011:196.520   Data:  00 02 00 00
T5350 011:196.599   Debug reg: DWT_FUNC[1]
T5350 011:196.666 - 0.833ms returns 1 (0x1)
T5350 011:196.717 JLINK_ReadMemU32(0xE0001048, 0x1 Items)
T5350 011:196.772   CPU_ReadMem(4 bytes @ 0xE0001048)
T5350 011:197.418   Data:  00 00 00 00
T5350 011:197.490   Debug reg: DWT_FUNC[2]
T5350 011:197.538 - 0.837ms returns 1 (0x1)
T5350 011:197.589 JLINK_ReadMemU32(0xE0001058, 0x1 Items)
T5350 011:197.642   CPU_ReadMem(4 bytes @ 0xE0001058)
T5350 011:198.275   Data:  00 00 00 00
T5350 011:198.345   Debug reg: DWT_FUNC[3]
T5350 011:198.393 - 0.821ms returns 1 (0x1)
T5350 011:198.765 JLINK_HasError()
T5350 011:198.822 JLINK_ReadReg(R0)
T5350 011:198.864 - 0.062ms returns 0x0C010000
T5350 011:198.910 JLINK_ReadReg(R1)
T5350 011:198.945 - 0.052ms returns 0x200011E0
T5350 011:198.987 JLINK_ReadReg(R2)
T5350 011:199.021 - 0.050ms returns 0xFFFFFFFF
T5350 011:199.063 JLINK_ReadReg(R3)
T5350 011:199.097 - 0.052ms returns 0x0C010000
T5350 011:199.139 JLINK_ReadReg(R4)
T5350 011:199.173 - 0.051ms returns 0x00000018
T5350 011:199.215 JLINK_ReadReg(R5)
T5350 011:199.249 - 0.051ms returns 0x200011C8
T5350 011:199.290 JLINK_ReadReg(R6)
T5350 011:199.324 - 0.051ms returns 0x20000090
T5350 011:199.366 JLINK_ReadReg(R7)
T5350 011:199.400 - 0.053ms returns 0x200011E0
T5350 011:199.444 JLINK_ReadReg(R8)
T5350 011:199.484 - 0.056ms returns 0x200011D0
T5350 011:199.531 JLINK_ReadReg(R9)
T5350 011:199.609 - 0.108ms returns 0x00000000
T5350 011:199.685 JLINK_ReadReg(R10)
T5350 011:199.760 - 0.113ms returns 0xA5A5A5A5
T5350 011:199.830 JLINK_ReadReg(R11)
T5350 011:199.868 - 0.056ms returns 0xA5A5A5A5
T5350 011:199.930 JLINK_ReadReg(R12)
T5350 011:200.006 - 0.173ms returns 0xA5A5A5A5
T5350 011:200.176 JLINK_ReadReg(R13 (SP))
T5350 011:200.289 - 0.146ms returns 0x20023330
T5350 011:200.365 JLINK_ReadReg(R14)
T5350 011:200.429 - 0.093ms returns 0xFFFFFFFD
T5350 011:200.500 JLINK_ReadReg(R15 (PC))
T5350 011:200.563 - 0.094ms returns 0x08005D0E
T5350 011:200.637 JLINK_ReadReg(XPSR)
T5350 011:200.699 - 0.091ms returns 0x81000003
T5350 011:200.772 JLINK_ReadReg(MSP)
T5350 011:200.841 - 0.097ms returns 0x20023330
T5350 011:200.910 JLINK_ReadReg(PSP)
T5350 011:200.969 - 0.087ms returns 0x20004900
T5350 011:201.039 JLINK_ReadReg(CFBP)
T5350 011:201.098 - 0.090ms returns 0x00000000
T5350 011:201.185 JLINK_ReadReg(FPSCR)
T5350 011:206.698 - 5.591ms returns 0x00000000
T5350 011:206.827 JLINK_ReadReg(FPS0)
T5350 011:206.883 - 0.074ms returns 0x00000000
T5350 011:206.927 JLINK_ReadReg(FPS1)
T5350 011:206.963 - 0.053ms returns 0x00000000
T5350 011:207.009 JLINK_ReadReg(FPS2)
T5350 011:207.043 - 0.055ms returns 0x40A00000
T5350 011:207.295 JLINK_ReadReg(FPS3)
T5350 011:207.405 - 0.141ms returns 0x00000000
T5350 011:207.481 JLINK_ReadReg(FPS4)
T5350 011:207.548 - 0.095ms returns 0x00000000
T5350 011:207.623 JLINK_ReadReg(FPS5)
T5350 011:207.689 - 0.093ms returns 0x00000000
T5350 011:207.773 JLINK_ReadReg(FPS6)
T5350 011:207.820 - 0.064ms returns 0x00000000
T5350 011:207.863 JLINK_ReadReg(FPS7)
T5350 011:207.898 - 0.053ms returns 0x00000000
T5350 011:207.941 JLINK_ReadReg(FPS8)
T5350 011:207.975 - 0.051ms returns 0x00000000
T5350 011:208.017 JLINK_ReadReg(FPS9)
T5350 011:208.052 - 0.052ms returns 0x00000000
T5350 011:208.094 JLINK_ReadReg(FPS10)
T5350 011:208.128 - 0.051ms returns 0x00000000
T5350 011:208.177 JLINK_ReadReg(FPS11)
T5350 011:208.240 - 0.101ms returns 0x00000000
T5350 011:208.343 JLINK_ReadReg(FPS12)
T5350 011:208.411 - 0.089ms returns 0x00000000
T5350 011:208.458 JLINK_ReadReg(FPS13)
T5350 011:208.494 - 0.053ms returns 0x00000000
T5350 011:208.539 JLINK_ReadReg(FPS14)
T5350 011:208.573 - 0.056ms returns 0x00000000
T5350 011:208.621 JLINK_ReadReg(FPS15)
T5350 011:208.655 - 0.051ms returns 0x00000000
T5350 011:208.697 JLINK_ReadReg(FPS16)
T5350 011:208.731 - 0.051ms returns 0x00000000
T5350 011:208.772 JLINK_ReadReg(FPS17)
T5350 011:208.806 - 0.051ms returns 0x00000000
T5350 011:208.847 JLINK_ReadReg(FPS18)
T5350 011:208.881 - 0.050ms returns 0x00000000
T5350 011:208.922 JLINK_ReadReg(FPS19)
T5350 011:208.957 - 0.051ms returns 0x00000000
T5350 011:209.005 JLINK_ReadReg(FPS20)
T5350 011:209.040 - 0.051ms returns 0x00000000
T5350 011:209.081 JLINK_ReadReg(FPS21)
T5350 011:209.116 - 0.051ms returns 0x00000000
T5350 011:209.158 JLINK_ReadReg(FPS22)
T5350 011:209.193 - 0.052ms returns 0x00000000
T5350 011:209.235 JLINK_ReadReg(FPS23)
T5350 011:209.275 - 0.057ms returns 0x00000000
T5350 011:209.316 JLINK_ReadReg(FPS24)
T5350 011:209.351 - 0.051ms returns 0x00000000
T5350 011:209.392 JLINK_ReadReg(FPS25)
T5350 011:209.426 - 0.050ms returns 0x00000000
T5350 011:209.467 JLINK_ReadReg(FPS26)
T5350 011:209.501 - 0.051ms returns 0x00000000
T5350 011:209.542 JLINK_ReadReg(FPS27)
T5350 011:209.576 - 0.050ms returns 0x00000000
T5350 011:209.626 JLINK_ReadReg(FPS28)
T5350 011:209.663 - 0.053ms returns 0x00000000
T5350 011:209.704 JLINK_ReadReg(FPS29)
T5350 011:209.738 - 0.050ms returns 0x00000000
T5350 011:209.779 JLINK_ReadReg(FPS30)
T5350 011:209.813 - 0.050ms returns 0x00000000
T5350 011:209.860 JLINK_ReadReg(FPS31)
T5350 011:209.895 - 0.052ms returns 0x00000000
T5350 011:209.947 JLINK_ReadMemEx(0x20000050, 0x4 Bytes, Flags = 0x02000000)
T5350 011:210.011   CPU_ReadMem(64 bytes @ 0x20000040)
T5350 011:211.297    -- Updating C cache (64 bytes @ 0x20000040)
T5350 011:211.416    -- Read from C cache (4 bytes @ 0x20000050)
T5350 011:211.468   Data:  08 00 00 00
T5350 011:211.515 - 1.584ms returns 4 (0x4)
T5350 011:211.581 JLINK_ReadMemEx(0x20000040, 0x4 Bytes, Flags = 0x02000000)
T5350 011:211.641    -- Read from C cache (4 bytes @ 0x20000040)
T5350 011:211.689   Data:  A0 49 00 20
T5350 011:211.735 - 0.169ms returns 4 (0x4)
T3C38 011:224.744 JLINK_ReadMemEx(0x20004918, 0x4 Bytes, Flags = 0x02000000)
T3C38 011:224.899   CPU_ReadMem(64 bytes @ 0x20004900)
T3C38 011:226.209    -- Updating C cache (64 bytes @ 0x20004900)
T3C38 011:226.306    -- Read from C cache (4 bytes @ 0x20004918)
T3C38 011:226.355   Data:  CA D7 00 08
T3C38 011:226.402 - 1.676ms returns 4 (0x4)
T3C38 011:226.459 JLINK_ReadMemEx(0x2000491C, 0x4 Bytes, Flags = 0x02000000)
T3C38 011:226.506    -- Read from C cache (4 bytes @ 0x2000491C)
T3C38 011:226.553   Data:  00 00 00 81
T3C38 011:226.599 - 0.156ms returns 4 (0x4)
T3C38 011:226.640 JLINK_ReadMemEx(0x20004914, 0x4 Bytes, Flags = 0x02000000)
T3C38 011:226.679    -- Read from C cache (4 bytes @ 0x20004914)
T3C38 011:226.735   Data:  E9 DD 00 08
T3C38 011:226.785 - 0.160ms returns 4 (0x4)
T3C38 011:226.826 JLINK_ReadMemEx(0xE000ED28, 0x4 Bytes, Flags = 0x02000000)
T3C38 011:226.881   CPU_ReadMem(4 bytes @ 0xE000ED28)
T3C38 011:227.545   Data:  00 82 00 00
T3C38 011:227.642 - 0.833ms returns 4 (0x4)
T3C38 011:228.618 JLINK_ReadMemEx(0x20004924, 0x4 Bytes, Flags = 0x02000000)
T3C38 011:228.684    -- Read from C cache (4 bytes @ 0x20004924)
T3C38 011:228.755   Data:  E9 DD 00 08
T3C38 011:228.820 - 0.227ms returns 4 (0x4)
T3C38 011:228.894 JLINK_ReadMemEx(0x20004920, 0x4 Bytes, Flags = 0x02000000)
T3C38 011:228.959    -- Read from C cache (4 bytes @ 0x20004920)
T3C38 011:229.026   Data:  18 00 00 00
T3C38 011:229.090 - 0.227ms returns 4 (0x4)
T3C38 011:229.158 JLINK_ReadMemEx(0x20004924, 0x4 Bytes, Flags = 0x02000000)
T3C38 011:229.217    -- Read from C cache (4 bytes @ 0x20004924)
T3C38 011:229.285   Data:  E9 DD 00 08
T3C38 011:229.347 - 0.212ms returns 4 (0x4)
T3C38 011:229.418 JLINK_ReadMemEx(0x2000493C, 0x4 Bytes, Flags = 0x02000000)
T3C38 011:229.482    -- Read from C cache (4 bytes @ 0x2000493C)
